Circuit: * C:\Users\metecangazi\Google Drive\WORKSPACE\ELEC421\HW1\SIM\HW1_SIM_2.asc

Ignoring BSIM parameter XL
Ignoring BSIM parameter XW
Warning: Pd = 0 is less than W.
Warning: Ps = 0 is less than W.
Direct Newton iteration for .op point succeeded.
Semiconductor Device Operating Points:
                        --- BSIM3 MOSFETS ---
Name:        m4          m3          m2          m1
Model:     tsmc25n     tsmc25n     tsmc25n     tsmc25n
Id:        7.33e-10   -4.93e-25    7.21e-10   -1.82e-30
Vgs:      -1.20e-02   -8.15e-18    1.20e-02    1.20e-02
Vds:       1.20e+01   -8.15e-18    1.20e-02   -1.82e-18
Vbs:      -1.20e-02    1.82e-18    0.00e+00    0.00e+00
Vth:       3.70e-01    3.66e-01    3.66e-01    3.66e-01
Vdsat:     3.19e-02    3.18e-02    3.18e-02    3.18e-02
Gm:        2.01e-08    1.37e-23    2.01e-08    9.63e-28
Gds:       8.57e-16    5.40e-08    4.62e-08    7.54e-08
Gmb        6.98e-09    4.88e-24    7.01e-09   -8.56e-26
Cbd:       0.00e+00    0.00e+00    0.00e+00    0.00e+00
Cbs:       0.00e+00    0.00e+00    0.00e+00    0.00e+00
Cgsov:     1.61e-08    1.61e-08    1.61e-08    1.61e-08
Cgdov:     1.61e-08    1.61e-08    1.61e-08    1.61e-08
Cgbov:     1.80e-13    1.80e-13    1.80e-13    1.80e-13
dQgdVgb:   8.87e-03    8.87e-03    8.82e-03    8.82e-03
dQgdVdb:  -1.61e-08   -6.22e-07   -2.91e-07   -8.62e-07
dQgdVsb:  -8.14e-07   -8.13e-07   -1.36e-06   -1.01e-06
dQddVgb:  -2.48e-07   -5.67e-07   -6.53e-07   -7.86e-07
dQddVdb:   1.61e-08    5.09e-07    2.40e-07    7.04e-07
dQddVsb:   3.20e-07    2.69e-07    6.55e-07    3.74e-07
dQbdVgb:  -8.87e-03   -8.87e-03   -8.82e-03   -8.82e-03
dQbdVdb:  -2.92e-15   -3.79e-07   -1.72e-07   -5.30e-07
dQbdVsb:   1.58e-07    2.60e-07    3.30e-08    2.48e-07



Date: Sun Nov 04 13:01:01 2018
Total elapsed time: 239.420 seconds.

tnom = 27
temp = 27
method = trap
totiter = 773173
traniter = 0
tranpoints = 0
accept = 0
rejected = 10
matrix size = 6
fillins = 0
solver = Normal
Matrix Compiler1:      20 opcodes  0.1/[0.0]/0.1
Matrix Compiler2: 462 bytes object code size  0.1/0.2/[0.1]

