time	I(I2)	I(Rl)
0.000000000000000e+000	0.000000e+000	-7.998775e-006
6.447321325140367e-008	2.025519e-008	-7.998450e-006
1.289464265028073e-007	4.050911e-008	-7.997997e-006
1.934196397542110e-007	6.076176e-008	-7.997417e-006
2.578928530056147e-007	8.101314e-008	-7.996710e-006
3.223660662570184e-007	1.012633e-007	-7.995876e-006
3.868392795084220e-007	1.215121e-007	-7.994914e-006
4.513124927598255e-007	1.417597e-007	-7.993825e-006
6.466249927598255e-007	2.030797e-007	-7.991177e-006
8.419374927598255e-007	2.643692e-007	-7.989287e-006
1.037249992759826e-006	3.256188e-007	-7.988657e-006
1.427874992759826e-006	4.479618e-007	-7.992279e-006
1.818499992759826e-006	5.700349e-007	-8.003206e-006
2.209124992759826e-006	6.917647e-007	-8.021624e-006
2.599749992759826e-006	8.130777e-007	-8.047301e-006
2.990374992759826e-006	9.339010e-007	-8.079837e-006
3.576312492759827e-006	1.114058e-006	-8.140511e-006
4.162249992759827e-006	1.292706e-006	-8.214054e-006
4.692383921331255e-006	1.453268e-006	-8.292522e-006
5.222517849902682e-006	1.611785e-006	-8.377192e-006
5.752651778474111e-006	1.768257e-006	-8.468065e-006
6.282785707045539e-006	1.922683e-006	-8.565140e-006
6.812919635616967e-006	2.075065e-006	-8.668417e-006
7.343053564188395e-006	2.225401e-006	-8.777897e-006
7.873187492759822e-006	2.373691e-006	-8.893579e-006
8.710241064188396e-006	2.603175e-006	-9.084825e-006
9.547294635616969e-006	2.824004e-006	-9.278572e-006
1.038434820704554e-005	3.036179e-006	-9.474819e-006
1.122140177847412e-005	3.239698e-006	-9.673567e-006
1.205845534990269e-005	3.434563e-006	-9.874815e-006
1.289550892133127e-005	3.620772e-006	-1.007856e-005
1.373256249275984e-005	3.798327e-006	-1.028481e-005
1.496024106418840e-005	4.040178e-006	-1.058299e-005
1.618791963561697e-005	4.255274e-006	-1.086568e-005
1.741559820704554e-005	4.443615e-006	-1.113288e-005
1.864327677847410e-005	4.605200e-006	-1.138459e-005
1.987095534990267e-005	4.740031e-006	-1.162081e-005
2.109863392133123e-005	4.848106e-006	-1.184154e-005
2.232631249275980e-005	4.929426e-006	-1.204678e-005
2.338658034990265e-005	4.974013e-006	-1.220261e-005
2.444684820704550e-005	4.996573e-006	-1.233912e-005
2.550711606418835e-005	4.997104e-006	-1.245633e-005
2.656738392133120e-005	4.975608e-006	-1.255422e-005
2.762765177847405e-005	4.932084e-006	-1.263280e-005
2.868791963561690e-005	4.866532e-006	-1.269208e-005
2.974818749275975e-005	4.778953e-006	-1.273204e-005
3.075265177847403e-005	4.675273e-006	-1.274935e-005
3.175711606418831e-005	4.554384e-006	-1.274812e-005
3.276158034990260e-005	4.416285e-006	-1.272833e-005
3.376604463561687e-005	4.260975e-006	-1.268998e-005
3.477050892133115e-005	4.088456e-006	-1.263309e-005
3.577497320704544e-005	3.898726e-006	-1.255764e-005
3.677943749275971e-005	3.691786e-006	-1.246364e-005
3.800711606418828e-005	3.416250e-006	-1.232227e-005
3.923479463561684e-005	3.125004e-006	-1.215807e-005
4.046247320704541e-005	2.818047e-006	-1.197105e-005
4.169015177847397e-005	2.495380e-006	-1.176120e-005
4.291783034990253e-005	2.157002e-006	-1.152852e-005
4.414550892133110e-005	1.802913e-006	-1.127302e-005
4.537318749275966e-005	1.433114e-006	-1.099469e-005
4.609863392133108e-005	1.212199e-006	-1.082271e-005
4.682408034990251e-005	9.899276e-007	-1.064583e-005
4.754952677847393e-005	7.663010e-007	-1.046403e-005
4.827497320704536e-005	5.413190e-007	-1.027732e-005
4.900041963561678e-005	3.149816e-007	-1.008569e-005
4.972586606418821e-005	8.728867e-008	-9.889151e-006
5.045131249275963e-005	-1.417597e-007	-9.687697e-006
5.120466070704534e-005	-3.793833e-007	-9.474582e-006
5.195800892133105e-005	-6.148527e-007	-9.259382e-006
5.271135713561676e-005	-8.481677e-007	-9.042097e-006
5.346470534990247e-005	-1.079329e-006	-8.822726e-006
5.421805356418818e-005	-1.308335e-006	-8.601270e-006
5.497140177847389e-005	-1.535187e-006	-8.377728e-006
5.572474999275960e-005	-1.759885e-006	-8.152101e-006
5.656180356418817e-005	-2.005043e-006	-7.900690e-006
5.739885713561674e-005	-2.243068e-006	-7.651259e-006
5.823591070704531e-005	-2.473961e-006	-7.403809e-006
5.907296427847388e-005	-2.697722e-006	-7.158340e-006
5.991001784990244e-005	-2.914351e-006	-6.914852e-006
6.074707142133101e-005	-3.123848e-006	-6.673345e-006
6.158412499275958e-005	-3.326212e-006	-6.433819e-006
6.295131249275962e-005	-3.638541e-006	-6.048785e-006
6.431849999275966e-005	-3.919540e-006	-5.684403e-006
6.568568749275969e-005	-4.169207e-006	-5.340673e-006
6.705287499275973e-005	-4.387544e-006	-5.017595e-006
6.842006249275977e-005	-4.574550e-006	-4.715168e-006
6.978724999275981e-005	-4.730226e-006	-4.433392e-006
7.115443749275985e-005	-4.854571e-006	-4.172269e-006
7.232631249275988e-005	-4.929511e-006	-3.973973e-006
7.349818749275992e-005	-4.977519e-006	-3.799472e-006
7.467006249275995e-005	-4.998595e-006	-3.648764e-006
7.584193749275999e-005	-4.992739e-006	-3.521851e-006
7.701381249276002e-005	-4.959951e-006	-3.418732e-006
7.818568749276005e-005	-4.900231e-006	-3.339408e-006
7.935756249276009e-005	-4.813579e-006	-3.283877e-006
8.033412499276011e-005	-4.720342e-006	-3.258620e-006
8.131068749276014e-005	-4.610556e-006	-3.251076e-006
8.228724999276017e-005	-4.484221e-006	-3.261246e-006
8.326381249276020e-005	-4.341337e-006	-3.289130e-006
8.424037499276023e-005	-4.181903e-006	-3.334727e-006
8.521693749276025e-005	-4.005921e-006	-3.398038e-006
8.619349999276028e-005	-3.813390e-006	-3.479063e-006
8.744908034990317e-005	-3.541749e-006	-3.610786e-006
8.870466070704606e-005	-3.252886e-006	-3.766923e-006
8.996024106418897e-005	-2.946800e-006	-3.947476e-006
9.121582142133186e-005	-2.623493e-006	-4.152443e-006
9.247140177847475e-005	-2.282963e-006	-4.381826e-006
9.372698213561764e-005	-1.925210e-006	-4.635624e-006
9.498256249276053e-005	-1.550236e-006	-4.913836e-006
9.573591070704627e-005	-1.322280e-006	-5.089121e-006
9.648925892133201e-005	-1.092660e-006	-5.269874e-006
9.724260713561774e-005	-8.613745e-007	-5.456096e-006
9.799595534990348e-005	-6.284239e-007	-5.647787e-006
9.874930356418922e-005	-3.938083e-007	-5.844946e-006
9.950265177847495e-005	-1.575275e-007	-6.047574e-006
1.002559999927607e-004	8.041827e-008	-6.255671e-006
1.010093482070464e-004	3.181778e-007	-6.467805e-006
1.017626964213322e-004	5.539178e-007	-6.682153e-006
1.025160446356179e-004	7.876382e-007	-6.898715e-006
1.032693928499036e-004	1.019339e-006	-7.117491e-006
1.040227410641894e-004	1.249020e-006	-7.338482e-006
1.047760892784751e-004	1.476682e-006	-7.561687e-006
1.055294374927608e-004	1.702324e-006	-7.787106e-006
1.063385892784752e-004	1.940463e-006	-8.029960e-006
1.071477410641895e-004	2.172141e-006	-8.271187e-006
1.079568928499038e-004	2.397357e-006	-8.510788e-006
1.087660446356181e-004	2.616111e-006	-8.748763e-006
1.095751964213324e-004	2.828403e-006	-8.985112e-006
1.103843482070467e-004	3.034233e-006	-9.219834e-006
1.111934999927610e-004	3.233601e-006	-9.452930e-006
1.125327857070468e-004	3.546924e-006	-9.833591e-006
1.138720714213325e-004	3.830741e-006	-1.019527e-005
1.152113571356183e-004	4.085053e-006	-1.053796e-005
1.165506428499040e-004	4.309859e-006	-1.086167e-005
1.178899285641898e-004	4.505161e-006	-1.116639e-005
1.192292142784755e-004	4.670957e-006	-1.145213e-005
1.205684999927613e-004	4.807247e-006	-1.171889e-005
1.217682767784756e-004	4.897350e-006	-1.193268e-005
1.229680535641899e-004	4.959230e-006	-1.212185e-005
1.241678303499042e-004	4.992889e-006	-1.228640e-005
1.253676071356186e-004	4.998326e-006	-1.242634e-005
1.265673839213329e-004	4.975541e-006	-1.254166e-005
1.277671607070472e-004	4.924535e-006	-1.263236e-005
1.289669374927615e-004	4.845306e-006	-1.269845e-005
1.299434999927615e-004	4.759342e-006	-1.273092e-005
1.309200624927616e-004	4.656618e-006	-1.274565e-005
1.318966249927616e-004	4.537133e-006	-1.274262e-005
1.328731874927616e-004	4.400889e-006	-1.272183e-005
1.338497499927617e-004	4.247886e-006	-1.268330e-005
1.348263124927617e-004	4.078122e-006	-1.262701e-005
1.358028749927617e-004	3.891598e-006	-1.255297e-005
1.370863571356189e-004	3.620875e-006	-1.242685e-005
1.383698392784761e-004	3.331672e-006	-1.227492e-005
1.396533214213332e-004	3.023989e-006	-1.209717e-005
1.409368035641904e-004	2.697825e-006	-1.189359e-005
1.422202857070476e-004	2.353180e-006	-1.166420e-005
1.435037678499048e-004	1.990056e-006	-1.140898e-005
1.447872499927620e-004	1.608451e-006	-1.112795e-005
1.455405982070477e-004	1.381350e-006	-1.095441e-005
1.462939464213334e-004	1.152449e-006	-1.077530e-005
1.470472946356192e-004	9.217472e-007	-1.059060e-005
1.478006428499049e-004	6.892450e-007	-1.040032e-005
1.485539910641907e-004	4.549423e-007	-1.020445e-005
1.493073392784764e-004	2.188390e-007	-1.000301e-005
1.500606874927621e-004	-1.906477e-008	-9.795983e-006
1.508419374927621e-004	-2.658273e-007	-9.576803e-006
1.516231874927622e-004	-5.104909e-007	-9.355174e-006
1.524044374927622e-004	-7.530554e-007	-9.131095e-006
1.531856874927622e-004	-9.935210e-007	-8.904567e-006
1.539669374927622e-004	-1.231888e-006	-8.675590e-006
1.547481874927623e-004	-1.468155e-006	-8.444163e-006
1.555294374927623e-004	-1.702324e-006	-8.210286e-006
1.563385892784766e-004	-1.940463e-006	-7.967404e-006
1.571477410641909e-004	-2.172141e-006	-7.726149e-006
1.579568928499052e-004	-2.397357e-006	-7.486522e-006
1.587660446356195e-004	-2.616111e-006	-7.248523e-006
1.595751964213338e-004	-2.828403e-006	-7.012152e-006
1.603843482070481e-004	-3.034233e-006	-6.777408e-006
1.611934999927624e-004	-3.233601e-006	-6.544292e-006
1.625327857070482e-004	-3.546924e-006	-6.163607e-006
1.638720714213339e-004	-3.830741e-006	-5.801913e-006
1.652113571356197e-004	-4.085053e-006	-5.459212e-006
1.665506428499055e-004	-4.309859e-006	-5.135502e-006
1.678899285641912e-004	-4.505161e-006	-4.830784e-006
1.692292142784770e-004	-4.670957e-006	-4.545058e-006
1.705684999927627e-004	-4.807247e-006	-4.278324e-006
1.717682767784770e-004	-4.897350e-006	-4.064566e-006
1.729680535641914e-004	-4.959230e-006	-3.875428e-006
1.741678303499057e-004	-4.992889e-006	-3.710909e-006
1.753676071356200e-004	-4.998326e-006	-3.571010e-006
1.765673839213343e-004	-4.975541e-006	-3.455731e-006
1.777671607070486e-004	-4.924535e-006	-3.365071e-006
1.789669374927629e-004	-4.845306e-006	-3.299032e-006
1.799434999927630e-004	-4.759342e-006	-3.266594e-006
1.809200624927630e-004	-4.656618e-006	-3.251907e-006
1.818966249927630e-004	-4.537133e-006	-3.254970e-006
1.828731874927631e-004	-4.400889e-006	-3.275784e-006
1.838497499927631e-004	-4.247886e-006	-3.314349e-006
1.848263124927631e-004	-4.078122e-006	-3.370664e-006
1.858028749927631e-004	-3.891598e-006	-3.444729e-006
1.870863571356203e-004	-3.620875e-006	-3.570871e-006
1.883698392784775e-004	-3.331672e-006	-3.722826e-006
1.896533214213347e-004	-3.023989e-006	-3.900592e-006
1.909368035641919e-004	-2.697825e-006	-4.104171e-006
1.922202857070490e-004	-2.353180e-006	-4.333562e-006
1.935037678499062e-004	-1.990056e-006	-4.588765e-006
1.947872499927634e-004	-1.608451e-006	-4.869780e-006
1.965450624927634e-004	-1.076855e-006	-5.282437e-006
1.969914910641920e-004	-9.392235e-007	-5.392944e-006
1.974379196356206e-004	-8.011255e-007	-5.505275e-006
1.978843482070492e-004	-6.625612e-007	-5.619432e-006
1.983307767784778e-004	-5.235306e-007	-5.735413e-006
1.987772053499064e-004	-3.840339e-007	-5.853219e-006
1.992236339213349e-004	-2.440708e-007	-5.972849e-006
1.996700624927635e-004	-1.036416e-007	-6.094305e-006
1.998653749927635e-004	-4.229193e-008	-6.147796e-006
2.000000000000000e-004	6.432490e-021	-6.184797e-006
